T39BC 000:004.287   SEGGER J-Link V7.64 Log File
T39BC 000:004.372   DLL Compiled: Apr  1 2022 16:04:43
T39BC 000:004.377   Logging started @ 2023-02-07 10:26
T39BC 000:004.382 - 4.384ms
T39BC 000:004.390 JLINK_SetWarnOutHandler(...)
T39BC 000:004.395 - 0.007ms
T39BC 000:004.401 JLINK_OpenEx(...)
T39BC 000:259.371   Firmware: J-Link V9 compiled May  7 2021 16:26:12
T39BC 000:260.364   Firmware: J-Link V9 compiled May  7 2021 16:26:12
T39BC 000:260.478   Decompressing FW timestamp took 88 us
T39BC 000:297.765   Hardware: V9.40
T39BC 000:297.779   S/N: 69406889
T39BC 000:297.787   OEM: SEGGER
T39BC 000:297.795   Feature(s): RDI, GDB, FlashDL, FlashBP, JFlash
T39BC 000:300.478   TELNET listener socket opened on port 19021
T39BC 000:300.719   WEBSRV WEBSRV_Init(): Starting webserver thread(s)
T39BC 000:300.778   WEBSRV Failed to put socket into listener state (port 19080)
T39BC 000:300.795   WEBSRV Failed to put socket into listener state (port 19081)
T39BC 000:300.901   WEBSRV Webserver running on local port 19082
T39BC 000:320.560 - 316.166ms returns "O.K."
T39BC 000:320.580 JLINK_GetEmuCaps()
T39BC 000:320.585 - 0.007ms returns 0xB9FF7BBF
T39BC 000:320.593 JLINK_TIF_GetAvailable(...)
T39BC 000:320.756 - 0.166ms
T39BC 000:320.764 JLINK_SetErrorOutHandler(...)
T39BC 000:320.769 - 0.006ms
T39BC 000:320.788 JLINK_ExecCommand("ProjectFile = "D:\Developmentfolder\LE5010_DEV\user_ls_ble_sdk-0.9.1.1\dev\examples\test_code\ble_single_role_le2100_ALL_IN_NB_CW_JSON\mdk\JLinkSettings.ini"", ...). 
T39BC 000:331.237   Ref file found at: C:\Keil_v5\ARM\Segger\JLinkDevices.ref
T39BC 000:331.436   XML referenced by ref file: C:\Program Files (x86)\SEGGER\JLink\JLinkDevices.xml
T39BC 000:331.704   C:\Program Files (x86)\SEGGER\JLink\JLinkDevices.xml evaluated successfully.
T39BC 000:331.719     Device entry created:  LE501X
T39BC 000:331.725       ChipInfo:
T39BC 000:331.731         Vendor:        LinkedSemi
T39BC 000:331.740         Name:          LE501X
T39BC 000:331.751         Core:          JLINK_CORE_CORTEX_M0
T39BC 000:331.759         WorkRAMAddr:   0x20000000
T39BC 000:331.768         WorkRAMSize:   0x0000C000
T39BC 000:331.861         Script:        C:\Program Files (x86)\SEGGER\JLink\LinkedSemi\LE501X.jlinkscript
T39BC 000:331.871       FlashBankInfo:
T39BC 000:331.877         Name:          QSPI Flash
T39BC 000:331.885         BaseAddr:      0x18000000
T39BC 000:331.893         MaxSize:       0x00080000
T39BC 000:332.032         Loader:        C:\Program Files (x86)\SEGGER\JLink\LinkedSemi\le501x_flash_algo.elf
T39BC 000:332.041         LoaderType:    FLASH_ALGO_TYPE_OPEN
T39BC 000:332.057     Device entry created:  SAGI
T39BC 000:332.062       ChipInfo:
T39BC 000:332.067         Vendor:        LinkedSemi
T39BC 000:332.074         Name:          SAGI
T39BC 000:332.081         Core:          JLINK_CORE_CORTEX_M3
T39BC 000:332.088         WorkRAMAddr:   0x00400000
T39BC 000:332.095         WorkRAMSize:   0x00010000
T39BC 000:332.102       FlashBankInfo:
T39BC 000:332.106         Name:          QSPI Flash
T39BC 000:332.113         BaseAddr:      0x00800000
T39BC 000:332.120         MaxSize:       0x00080000
T39BC 000:332.248         Loader:        C:\Program Files (x86)\SEGGER\JLink\LinkedSemi\sagi_flash_algo.elf
T39BC 000:332.257         LoaderType:    FLASH_ALGO_TYPE_OPEN
T39BC 000:332.369 - 11.585ms returns 0x00
T39BC 000:337.935 JLINK_ExecCommand("Device = ARMCM0", ...). 
T39BC 000:342.023   Device "CORTEX-M0" selected.
T39BC 000:342.289 - 4.347ms returns 0x00
T39BC 000:342.299 JLINK_ExecCommand("DisableConnectionTimeout", ...). 
T39BC 000:342.306 - 0.003ms returns 0x01
T39BC 000:342.312 JLINK_GetHardwareVersion()
T39BC 000:342.316 - 0.006ms returns 94000
T39BC 000:342.325 JLINK_GetDLLVersion()
T39BC 000:342.330 - 0.006ms returns 76400
T39BC 000:342.335 JLINK_GetOEMString(...)
T39BC 000:342.340 JLINK_GetFirmwareString(...)
T39BC 000:342.345 - 0.006ms
T39BC 000:357.172 JLINK_GetDLLVersion()
T39BC 000:357.181 - 0.011ms returns 76400
T39BC 000:357.187 JLINK_GetCompileDateTime()
T39BC 000:357.227 - 0.044ms
T39BC 000:361.315 JLINK_GetFirmwareString(...)
T39BC 000:361.326 - 0.014ms
T39BC 000:366.097 JLINK_GetHardwareVersion()
T39BC 000:366.107 - 0.013ms returns 94000
T39BC 000:370.906 JLINK_GetSN()
T39BC 000:370.915 - 0.011ms returns 69406889
T39BC 000:374.660 JLINK_GetOEMString(...)
T39BC 000:382.922 JLINK_TIF_Select(JLINKARM_TIF_SWD)
T39BC 000:384.803 - 1.886ms returns 0x00
T39BC 000:384.813 JLINK_HasError()
T39BC 000:384.824 JLINK_SetSpeed(5000)
T39BC 000:384.921 - 0.100ms
T39BC 000:384.929 JLINK_GetId()
T39BC 000:394.420   ConfigTargetSettings() start
T39BC 000:394.432    J-Link Script File: Executing ConfigTargetSettings()
T39BC 000:401.210   ConfigTargetSettings() end
T39BC 000:406.587   Found SW-DP with ID 0x0BB11477
T39BC 000:417.682   DPIDR: 0x0BB11477
T39BC 000:421.204   CoreSight SoC-400 or earlier
T39BC 000:424.849   Scanning AP map to find all available APs
T39BC 000:429.883   AP[1]: Stopped AP scan as end of AP map has been reached
T39BC 000:433.629   AP[0]: AHB-AP (IDR: 0x04770021)
T39BC 000:437.222   Iterating through AP map to find AHB-AP to use
T39BC 000:443.040   AP[0]: Core found
T39BC 000:446.568   AP[0]: AHB-AP ROM base: 0xE00FF000
T39BC 000:451.530   CPUID register: 0x410CC200. Implementer code: 0x41 (ARM)
T39BC 000:455.119   Found Cortex-M0 r0p0, Little endian.
T39BC 000:556.333   -- Max. mem block: 0x00010E60
T39BC 000:556.482   CPU_ReadMem(4 bytes @ 0xE000EDF0)
T39BC 000:557.335   CPU_WriteMem(4 bytes @ 0xE000EDF0)
T39BC 000:558.219   CPU_ReadMem(4 bytes @ 0xE0002000)
T39BC 000:563.127   FPUnit: 4 code (BP) slots and 0 literal slots
T39BC 000:563.140   CPU_ReadMem(4 bytes @ 0xE000EDFC)
T39BC 000:563.756   CPU_WriteMem(4 bytes @ 0xE000EDFC)
T39BC 000:564.753   CPU_ReadMem(4 bytes @ 0xE0001000)
T39BC 000:565.763   CPU_WriteMem(4 bytes @ 0xE0001000)
T39BC 000:569.997   CoreSight components:
T39BC 000:573.584   ROMTbl[0] @ E00FF000
T39BC 000:573.596   CPU_ReadMem(64 bytes @ 0xE00FF000)
T39BC 000:574.334   CPU_ReadMem(32 bytes @ 0xE000EFE0)
T39BC 000:580.716   [0][0]: E000E000 CID B105E00D PID 000BB008 SCS
T39BC 000:580.732   CPU_ReadMem(32 bytes @ 0xE0001FE0)
T39BC 000:587.095   [0][1]: E0001000 CID B105E00D PID 000BB00A DWT
T39BC 000:587.107   CPU_ReadMem(32 bytes @ 0xE0002FE0)
T39BC 000:593.380   [0][2]: E0002000 CID B105E00D PID 000BB00B FPB
T39BC 000:593.755 - 208.833ms returns 0x0BB11477
T39BC 000:593.771 JLINK_GetDLLVersion()
T39BC 000:593.776 - 0.007ms returns 76400
T39BC 000:593.783 JLINK_CORE_GetFound()
T39BC 000:593.788 - 0.006ms returns 0x60000FF
T39BC 000:593.794 JLINK_GetDebugInfo(0x100 = JLINKARM_ROM_TABLE_ADDR_INDEX)
T39BC 000:593.800   Value=0xE00FF000
T39BC 000:593.806 - 0.014ms returns 0
T39BC 000:597.693 JLINK_GetDebugInfo(0x100 = JLINKARM_ROM_TABLE_ADDR_INDEX)
T39BC 000:597.702   Value=0xE00FF000
T39BC 000:597.709 - 0.019ms returns 0
T39BC 000:597.715 JLINK_GetDebugInfo(0x101 = JLINKARM_DEBUG_INFO_ETM_ADDR_INDEX)
T39BC 000:597.720   Value=0x00000000
T39BC 000:597.727 - 0.013ms returns 0
T39BC 000:597.735 JLINK_ReadMemEx(0xE0041FF0, 0x10 Bytes, Flags = 0x02000004)
T39BC 000:597.754   CPU_ReadMem(16 bytes @ 0xE0041FF0)
T39BC 000:598.765   Data:  00 00 00 00 00 00 00 00 00 00 00 00 00 00 00 00
T39BC 000:598.773 - 1.040ms returns 16 (0x10)
T39BC 000:598.779 JLINK_GetDebugInfo(0x102 = JLINKARM_DEBUG_INFO_MTB_ADDR_INDEX)
T39BC 000:598.784   Value=0x00000000
T39BC 000:598.791 - 0.013ms returns 0
T39BC 000:598.796 JLINK_GetDebugInfo(0x103 = JLINKARM_DEBUG_INFO_TPIU_ADDR_INDEX)
T39BC 000:598.801   Value=0x00000000
T39BC 000:598.807 - 0.013ms returns 0
T39BC 000:598.812 JLINK_ReadMemEx(0xE0040FF0, 0x10 Bytes, Flags = 0x02000004)
T39BC 000:598.833   CPU_ReadMem(16 bytes @ 0xE0040FF0)
T39BC 000:599.345   Data:  00 00 00 00 00 00 00 00 00 00 00 00 00 00 00 00
T39BC 000:599.354 - 0.544ms returns 16 (0x10)
T39BC 000:599.361 JLINK_GetDebugInfo(0x104 = JLINKARM_DEBUG_INFO_ITM_ADDR_INDEX)
T39BC 000:599.367   Value=0xE0000000
T39BC 000:599.375 - 0.016ms returns 0
T39BC 000:599.381 JLINK_GetDebugInfo(0x105 = JLINKARM_DEBUG_INFO_DWT_ADDR_INDEX)
T39BC 000:599.390   Value=0xE0001000
T39BC 000:599.399 - 0.020ms returns 0
T39BC 000:599.406 JLINK_GetDebugInfo(0x106 = JLINKARM_DEBUG_INFO_FPB_ADDR_INDEX)
T39BC 000:599.411   Value=0xE0002000
T39BC 000:599.419 - 0.016ms returns 0
T39BC 000:599.425 JLINK_GetDebugInfo(0x107 = JLINKARM_DEBUG_INFO_NVIC_ADDR_INDEX)
T39BC 000:599.431   Value=0xE000E000
T39BC 000:599.439 - 0.015ms returns 0
T39BC 000:599.445 JLINK_GetDebugInfo(0x10C = JLINKARM_DEBUG_INFO_DBG_ADDR_INDEX)
T39BC 000:599.451   Value=0xE000EDF0
T39BC 000:599.458 - 0.016ms returns 0
T39BC 000:599.465 JLINK_GetDebugInfo(0x01 = Unknown)
T39BC 000:599.470   Value=0x00000000
T39BC 000:599.478 - 0.015ms returns 0
T39BC 000:599.484 JLINK_ReadMemU32(0xE000ED00, 0x1 Items)
T39BC 000:599.492   CPU_ReadMem(4 bytes @ 0xE000ED00)
T39BC 000:600.334   Data:  00 C2 0C 41
T39BC 000:600.342   Debug reg: CPUID
T39BC 000:600.348 - 0.866ms returns 1 (0x1)
T39BC 000:600.355 JLINK_GetDebugInfo(0x10F = JLINKARM_DEBUG_INFO_HAS_CORTEX_M_SECURITY_EXT_INDEX)
T39BC 000:600.359   Value=0x00000000
T39BC 000:600.366 - 0.013ms returns 0
T39BC 000:600.371 JLINK_HasError()
T39BC 000:600.377 JLINK_SetResetType(JLINKARM_CM3_RESET_TYPE_NORMAL)
T39BC 000:600.382 - 0.007ms returns JLINKARM_CM3_RESET_TYPE_NORMAL
T39BC 000:600.387 JLINK_Reset()
T39BC 000:600.398   CPU is running
T39BC 000:600.406   CPU_WriteMem(4 bytes @ 0xE000EDF0)
T39BC 000:600.750   CPU is running
T39BC 000:600.758   CPU_WriteMem(4 bytes @ 0xE000EDFC)
T39BC 000:605.948   Reset: Halt core after reset via DEMCR.VC_CORERESET.
T39BC 000:610.580   Reset: Reset device via AIRCR.SYSRESETREQ.
T39BC 000:610.593   CPU is running
T39BC 000:610.602   CPU_WriteMem(4 bytes @ 0xE000ED0C)
T39BC 000:663.757   CPU_ReadMem(4 bytes @ 0xE000EDF0)
T39BC 000:664.340   CPU_ReadMem(4 bytes @ 0xE000EDF0)
T39BC 000:664.755   CPU is running
T39BC 000:664.766   CPU_WriteMem(4 bytes @ 0xE000EDF0)
T39BC 000:665.330   CPU is running
T39BC 000:665.339   CPU_WriteMem(4 bytes @ 0xE000EDFC)
T39BC 000:671.855   CPU_ReadMem(4 bytes @ 0xE000EDF0)
T39BC 000:679.460   AfterResetTarget() start
T39BC 000:679.474    J-Link Script File: Executing AfterResetTarget()
T39BC 000:679.493   CPU_WriteMem(4 bytes @ 0x40021004)
T39BC 000:684.314   AfterResetTarget() end
T39BC 000:684.328   CPU_WriteMem(4 bytes @ 0xE0002000)
T39BC 000:684.749   CPU_ReadMem(4 bytes @ 0xE000EDFC)
T39BC 000:685.333   CPU_ReadMem(4 bytes @ 0xE0001000)
T39BC 000:685.752   CPU_WriteMem(4 bytes @ 0xE0001000)
T39BC 000:686.223 - 85.839ms
T39BC 000:686.236 JLINK_Halt()
T39BC 000:686.242 - 0.008ms returns 0x00
T39BC 000:686.251 JLINK_ReadMemU32(0xE000EDF0, 0x1 Items)
T39BC 000:686.262   CPU_ReadMem(4 bytes @ 0xE000EDF0)
T39BC 000:686.754   Data:  03 00 03 00
T39BC 000:686.763   Debug reg: DHCSR
T39BC 000:686.771 - 0.522ms returns 1 (0x1)
T39BC 000:686.809 JLINK_WriteU32_64(0xE000EDF0, 0xA05F0003)
T39BC 000:686.816   Debug reg: DHCSR
T39BC 000:687.058   CPU_WriteMem(4 bytes @ 0xE000EDF0)
T39BC 000:687.751 - 0.945ms returns 0 (0x00000000)
T39BC 000:687.760 JLINK_WriteU32_64(0xE000EDFC, 0x01000000)
T39BC 000:687.766   Debug reg: DEMCR
T39BC 000:687.776   CPU_WriteMem(4 bytes @ 0xE000EDFC)
T39BC 000:688.330 - 0.573ms returns 0 (0x00000000)
T39BC 000:704.321 JLINK_GetHWStatus(...)
T39BC 000:704.752 - 0.434ms returns 0
T39BC 000:716.759 JLINK_GetNumBPUnits(Type = 0xFFFFFF00)
T39BC 000:716.769 - 0.012ms returns 0x04
T39BC 000:716.775 JLINK_GetNumBPUnits(Type = 0xF0)
T39BC 000:716.780 - 0.006ms returns 0x2000
T39BC 000:716.785 JLINK_GetNumWPUnits()
T39BC 000:716.790 - 0.006ms returns 2
T39BC 000:728.140 JLINK_GetSpeed()
T39BC 000:728.150 - 0.011ms returns 4000
T39BC 000:735.682 JLINK_ReadMemU32(0xE000E004, 0x1 Items)
T39BC 000:735.697   CPU_ReadMem(4 bytes @ 0xE000E004)
T39BC 000:736.334   Data:  00 00 00 00
T39BC 000:736.342 - 0.662ms returns 1 (0x1)
T39BC 000:736.373 JLINK_Halt()
T39BC 000:736.378 - 0.007ms returns 0x00
T39BC 000:736.384 JLINK_IsHalted()
T39BC 000:736.389 - 0.007ms returns TRUE
T39BC 000:739.236 JLINK_WriteMem(0x20000000, 0x77E Bytes, ...)
T39BC 000:739.245   Data:  00 BE 0A E0 0D 78 2D 06 68 40 08 24 40 00 00 D3 ...
T39BC 000:739.392   CPU_WriteMem(1918 bytes @ 0x20000000)
T39BC 000:754.818 - 15.589ms returns 0x77E
T39BC 000:754.852 JLINK_HasError()
T39BC 000:754.861 JLINK_WriteReg(R0, 0x18000000)
T39BC 000:754.873 - 0.014ms returns 0
T39BC 000:754.880 JLINK_WriteReg(R1, 0x00B71B00)
T39BC 000:754.886 - 0.009ms returns 0
T39BC 000:754.892 JLINK_WriteReg(R2, 0x00000001)
T39BC 000:754.898 - 0.008ms returns 0
T39BC 000:754.904 JLINK_WriteReg(R3, 0x00000000)
T39BC 000:754.910 - 0.008ms returns 0
T39BC 000:754.917 JLINK_WriteReg(R4, 0x00000000)
T39BC 000:754.922 - 0.009ms returns 0
T39BC 000:754.930 JLINK_WriteReg(R5, 0x00000000)
T39BC 000:754.936 - 0.008ms returns 0
T39BC 000:754.942 JLINK_WriteReg(R6, 0x00000000)
T39BC 000:754.948 - 0.008ms returns 0
T39BC 000:754.954 JLINK_WriteReg(R7, 0x00000000)
T39BC 000:754.960 - 0.008ms returns 0
T39BC 000:754.966 JLINK_WriteReg(R8, 0x00000000)
T39BC 000:754.972 - 0.008ms returns 0
T39BC 000:754.978 JLINK_WriteReg(R9, 0x2000077E)
T39BC 000:754.984 - 0.008ms returns 0
T39BC 000:754.990 JLINK_WriteReg(R10, 0x00000000)
T39BC 000:754.996 - 0.008ms returns 0
T39BC 000:755.002 JLINK_WriteReg(R11, 0x00000000)
T39BC 000:755.008 - 0.008ms returns 0
T39BC 000:755.014 JLINK_WriteReg(R12, 0x00000000)
T39BC 000:755.020 - 0.008ms returns 0
T39BC 000:755.026 JLINK_WriteReg(R13 (SP), 0x20001000)
T39BC 000:755.032 - 0.007ms returns 0
T39BC 000:755.037 JLINK_WriteReg(R14, 0x20000001)
T39BC 000:755.042 - 0.006ms returns 0
T39BC 000:755.047 JLINK_WriteReg(R15 (PC), 0x20000038)
T39BC 000:755.054 - 0.009ms returns 0
T39BC 000:755.059 JLINK_WriteReg(XPSR, 0x01000000)
T39BC 000:755.064 - 0.006ms returns 0
T39BC 000:755.069 JLINK_WriteReg(MSP, 0x20001000)
T39BC 000:755.074 - 0.006ms returns 0
T39BC 000:755.079 JLINK_WriteReg(PSP, 0x20001000)
T39BC 000:755.083 - 0.006ms returns 0
T39BC 000:755.089 JLINK_WriteReg(CFBP, 0x00000000)
T39BC 000:755.093 - 0.006ms returns 0
T39BC 000:755.098 JLINK_SetBPEx(Addr = 0x20000000, Type = 0xFFFFFFF2)
T39BC 000:755.107   CPU_ReadMem(4 bytes @ 0x20000000)
T39BC 000:755.753   CPU_WriteMem(4 bytes @ 0x20000000)
T39BC 000:756.333   CPU_ReadMem(4 bytes @ 0x20000000)
T39BC 000:756.753   CPU_WriteMem(4 bytes @ 0x20000000)
T39BC 000:757.750   CPU_ReadMem(2 bytes @ 0x20000000)
T39BC 000:758.396 - 3.301ms returns 0x00000001
T39BC 000:758.405 JLINK_Go()
T39BC 000:758.412   CPU_WriteMem(2 bytes @ 0x20000000)
T39BC 000:758.757   CPU_ReadMem(4 bytes @ 0xE0001000)
T39BC 000:759.335   CPU_WriteMem(4 bytes @ 0xE0001000)
T39BC 000:761.751   CPU_WriteMem(4 bytes @ 0xE0002008)
T39BC 000:761.763   CPU_WriteMem(4 bytes @ 0xE000200C)
T39BC 000:761.771   CPU_WriteMem(4 bytes @ 0xE0002010)
T39BC 000:761.779   CPU_WriteMem(4 bytes @ 0xE0002014)
T39BC 000:762.760   CPU_WriteMem(4 bytes @ 0xE0001004)
T39BC 000:766.217 - 7.818ms
T39BC 000:766.230 JLINK_IsHalted()
T39BC 000:766.749 - 0.522ms returns FALSE
T39BC 000:766.758 JLINK_HasError()
T39BC 000:799.970 JLINK_IsHalted()
T39BC 000:802.771   CPU_ReadMem(2 bytes @ 0x20000000)
T39BC 000:803.330 - 3.363ms returns TRUE
T39BC 000:803.338 JLINK_ReadReg(R15 (PC))
T39BC 000:803.345 - 0.009ms returns 0x20000000
T39BC 000:803.351 JLINK_ClrBPEx(BPHandle = 0x00000001)
T39BC 000:803.356 - 0.007ms returns 0x00
T39BC 000:803.361 JLINK_ReadReg(R0)
T39BC 000:803.366 - 0.007ms returns 0x00000000
T39BC 000:803.569 JLINK_HasError()
T39BC 000:803.578 JLINK_WriteReg(R0, 0x18005000)
T39BC 000:803.584 - 0.008ms returns 0
T39BC 000:803.589 JLINK_WriteReg(R1, 0x00001000)
T39BC 000:803.594 - 0.007ms returns 0
T39BC 000:803.599 JLINK_WriteReg(R2, 0x000000FF)
T39BC 000:803.604 - 0.006ms returns 0
T39BC 000:803.609 JLINK_WriteReg(R3, 0x00000000)
T39BC 000:803.614 - 0.006ms returns 0
T39BC 000:803.619 JLINK_WriteReg(R4, 0x00000000)
T39BC 000:803.624 - 0.006ms returns 0
T39BC 000:803.629 JLINK_WriteReg(R5, 0x00000000)
T39BC 000:803.633 - 0.006ms returns 0
T39BC 000:803.639 JLINK_WriteReg(R6, 0x00000000)
T39BC 000:803.692 - 0.055ms returns 0
T39BC 000:803.697 JLINK_WriteReg(R7, 0x00000000)
T39BC 000:803.702 - 0.007ms returns 0
T39BC 000:803.707 JLINK_WriteReg(R8, 0x00000000)
T39BC 000:803.712 - 0.006ms returns 0
T39BC 000:803.717 JLINK_WriteReg(R9, 0x2000077E)
T39BC 000:803.722 - 0.007ms returns 0
T39BC 000:803.727 JLINK_WriteReg(R10, 0x00000000)
T39BC 000:803.732 - 0.006ms returns 0
T39BC 000:803.737 JLINK_WriteReg(R11, 0x00000000)
T39BC 000:803.742 - 0.006ms returns 0
T39BC 000:803.747 JLINK_WriteReg(R12, 0x00000000)
T39BC 000:803.751 - 0.006ms returns 0
T39BC 000:803.757 JLINK_WriteReg(R13 (SP), 0x20001000)
T39BC 000:803.762 - 0.007ms returns 0
T39BC 000:803.767 JLINK_WriteReg(R14, 0x20000001)
T39BC 000:803.772 - 0.006ms returns 0
T39BC 000:803.777 JLINK_WriteReg(R15 (PC), 0x20000020)
T39BC 000:803.782 - 0.006ms returns 0
T39BC 000:803.787 JLINK_WriteReg(XPSR, 0x01000000)
T39BC 000:803.792 - 0.006ms returns 0
T39BC 000:803.797 JLINK_WriteReg(MSP, 0x20001000)
T39BC 000:803.801 - 0.006ms returns 0
T39BC 000:803.807 JLINK_WriteReg(PSP, 0x20001000)
T39BC 000:803.811 - 0.006ms returns 0
T39BC 000:803.816 JLINK_WriteReg(CFBP, 0x00000000)
T39BC 000:803.821 - 0.007ms returns 0
T39BC 000:803.827 JLINK_SetBPEx(Addr = 0x20000000, Type = 0xFFFFFFF2)
T39BC 000:803.832 - 0.007ms returns 0x00000002
T39BC 000:803.837 JLINK_Go()
T39BC 000:803.846   CPU_ReadMem(4 bytes @ 0xE0001000)
T39BC 000:807.331 - 3.499ms
T39BC 000:807.342 JLINK_IsHalted()
T39BC 000:810.344   CPU_ReadMem(2 bytes @ 0x20000000)
T39BC 000:810.751 - 3.412ms returns TRUE
T39BC 000:810.759 JLINK_ReadReg(R15 (PC))
T39BC 000:810.766 - 0.009ms returns 0x20000000
T39BC 000:810.773 JLINK_ClrBPEx(BPHandle = 0x00000002)
T39BC 000:810.778 - 0.008ms returns 0x00
T39BC 000:810.785 JLINK_ReadReg(R0)
T39BC 000:810.791 - 0.008ms returns 0x00000001
T39BC 000:810.797 JLINK_HasError()
T39BC 000:810.804 JLINK_WriteReg(R0, 0x18005000)
T39BC 000:810.810 - 0.008ms returns 0
T39BC 000:810.816 JLINK_WriteReg(R1, 0x00001000)
T39BC 000:810.822 - 0.008ms returns 0
T39BC 000:810.828 JLINK_WriteReg(R2, 0x000000FF)
T39BC 000:810.834 - 0.008ms returns 0
T39BC 000:810.840 JLINK_WriteReg(R3, 0x00000000)
T39BC 000:810.846 - 0.008ms returns 0
T39BC 000:810.852 JLINK_WriteReg(R4, 0x00000000)
T39BC 000:810.858 - 0.008ms returns 0
T39BC 000:810.864 JLINK_WriteReg(R5, 0x00000000)
T39BC 000:810.869 - 0.008ms returns 0
T39BC 000:810.876 JLINK_WriteReg(R6, 0x00000000)
T39BC 000:810.881 - 0.008ms returns 0
T39BC 000:810.888 JLINK_WriteReg(R7, 0x00000000)
T39BC 000:810.893 - 0.008ms returns 0
T39BC 000:810.900 JLINK_WriteReg(R8, 0x00000000)
T39BC 000:810.905 - 0.008ms returns 0
T39BC 000:810.911 JLINK_WriteReg(R9, 0x2000077E)
T39BC 000:810.917 - 0.008ms returns 0
T39BC 000:810.923 JLINK_WriteReg(R10, 0x00000000)
T39BC 000:810.929 - 0.008ms returns 0
T39BC 000:810.935 JLINK_WriteReg(R11, 0x00000000)
T39BC 000:810.941 - 0.008ms returns 0
T39BC 000:810.947 JLINK_WriteReg(R12, 0x00000000)
T39BC 000:810.953 - 0.008ms returns 0
T39BC 000:810.959 JLINK_WriteReg(R13 (SP), 0x20001000)
T39BC 000:810.965 - 0.008ms returns 0
T39BC 000:810.971 JLINK_WriteReg(R14, 0x20000001)
T39BC 000:810.978 - 0.009ms returns 0
T39BC 000:810.985 JLINK_WriteReg(R15 (PC), 0x20000092)
T39BC 000:810.990 - 0.008ms returns 0
T39BC 000:810.997 JLINK_WriteReg(XPSR, 0x01000000)
T39BC 000:811.002 - 0.008ms returns 0
T39BC 000:811.009 JLINK_WriteReg(MSP, 0x20001000)
T39BC 000:811.015 - 0.008ms returns 0
T39BC 000:811.021 JLINK_WriteReg(PSP, 0x20001000)
T39BC 000:811.026 - 0.008ms returns 0
T39BC 000:811.033 JLINK_WriteReg(CFBP, 0x00000000)
T39BC 000:811.038 - 0.008ms returns 0
T39BC 000:811.045 JLINK_SetBPEx(Addr = 0x20000000, Type = 0xFFFFFFF2)
T39BC 000:811.051 - 0.008ms returns 0x00000003
T39BC 000:811.057 JLINK_Go()
T39BC 000:811.066   CPU_ReadMem(4 bytes @ 0xE0001000)
T39BC 000:814.750 - 3.699ms
T39BC 000:814.762 JLINK_IsHalted()
T39BC 000:815.326 - 0.566ms returns FALSE
T39BC 000:815.333 JLINK_HasError()
T39BC 000:818.987 JLINK_IsHalted()
T39BC 000:819.328 - 0.345ms returns FALSE
T39BC 000:819.337 JLINK_HasError()
T39BC 000:820.990 JLINK_IsHalted()
T39BC 000:821.328 - 0.343ms returns FALSE
T39BC 000:821.338 JLINK_HasError()
T39BC 000:822.989 JLINK_IsHalted()
T39BC 000:823.748 - 0.762ms returns FALSE
T39BC 000:823.757 JLINK_HasError()
T39BC 000:824.991 JLINK_IsHalted()
T39BC 000:828.343   CPU_ReadMem(2 bytes @ 0x20000000)
T39BC 000:828.750 - 3.763ms returns TRUE
T39BC 000:828.759 JLINK_ReadReg(R15 (PC))
T39BC 000:828.766 - 0.009ms returns 0x20000000
T39BC 000:828.772 JLINK_ClrBPEx(BPHandle = 0x00000003)
T39BC 000:828.778 - 0.008ms returns 0x00
T39BC 000:828.785 JLINK_ReadReg(R0)
T39BC 000:828.790 - 0.008ms returns 0x00000000
T39BC 000:829.246 JLINK_HasError()
T39BC 000:829.258 JLINK_WriteReg(R0, 0x18006000)
T39BC 000:829.265 - 0.010ms returns 0
T39BC 000:829.272 JLINK_WriteReg(R1, 0x00001000)
T39BC 000:829.277 - 0.008ms returns 0
T39BC 000:829.284 JLINK_WriteReg(R2, 0x000000FF)
T39BC 000:829.289 - 0.008ms returns 0
T39BC 000:829.296 JLINK_WriteReg(R3, 0x00000000)
T39BC 000:829.301 - 0.008ms returns 0
T39BC 000:829.308 JLINK_WriteReg(R4, 0x00000000)
T39BC 000:829.313 - 0.008ms returns 0
T39BC 000:829.320 JLINK_WriteReg(R5, 0x00000000)
T39BC 000:829.325 - 0.008ms returns 0
T39BC 000:829.332 JLINK_WriteReg(R6, 0x00000000)
T39BC 000:829.337 - 0.008ms returns 0
T39BC 000:829.344 JLINK_WriteReg(R7, 0x00000000)
T39BC 000:829.349 - 0.008ms returns 0
T39BC 000:829.355 JLINK_WriteReg(R8, 0x00000000)
T39BC 000:829.361 - 0.008ms returns 0
T39BC 000:829.367 JLINK_WriteReg(R9, 0x2000077E)
T39BC 000:829.373 - 0.008ms returns 0
T39BC 000:829.379 JLINK_WriteReg(R10, 0x00000000)
T39BC 000:829.385 - 0.008ms returns 0
T39BC 000:829.391 JLINK_WriteReg(R11, 0x00000000)
T39BC 000:829.397 - 0.008ms returns 0
T39BC 000:829.403 JLINK_WriteReg(R12, 0x00000000)
T39BC 000:829.409 - 0.008ms returns 0
T39BC 000:829.415 JLINK_WriteReg(R13 (SP), 0x20001000)
T39BC 000:829.421 - 0.008ms returns 0
T39BC 000:829.427 JLINK_WriteReg(R14, 0x20000001)
T39BC 000:829.433 - 0.008ms returns 0
T39BC 000:829.439 JLINK_WriteReg(R15 (PC), 0x20000020)
T39BC 000:829.445 - 0.008ms returns 0
T39BC 000:829.451 JLINK_WriteReg(XPSR, 0x01000000)
T39BC 000:829.457 - 0.008ms returns 0
T39BC 000:829.464 JLINK_WriteReg(MSP, 0x20001000)
T39BC 000:829.469 - 0.008ms returns 0
T39BC 000:829.476 JLINK_WriteReg(PSP, 0x20001000)
T39BC 000:829.481 - 0.008ms returns 0
T39BC 000:829.487 JLINK_WriteReg(CFBP, 0x00000000)
T39BC 000:829.493 - 0.008ms returns 0
T39BC 000:829.499 JLINK_SetBPEx(Addr = 0x20000000, Type = 0xFFFFFFF2)
T39BC 000:829.506 - 0.009ms returns 0x00000004
T39BC 000:829.512 JLINK_Go()
T39BC 000:829.522   CPU_ReadMem(4 bytes @ 0xE0001000)
T39BC 000:833.748 - 4.243ms
T39BC 000:833.761 JLINK_IsHalted()
T39BC 000:836.765   CPU_ReadMem(2 bytes @ 0x20000000)
T39BC 000:837.330 - 3.572ms returns TRUE
T39BC 000:837.339 JLINK_ReadReg(R15 (PC))
T39BC 000:837.345 - 0.009ms returns 0x20000000
T39BC 000:837.352 JLINK_ClrBPEx(BPHandle = 0x00000004)
T39BC 000:837.358 - 0.008ms returns 0x00
T39BC 000:837.365 JLINK_ReadReg(R0)
T39BC 000:837.370 - 0.008ms returns 0x00000001
T39BC 000:837.377 JLINK_HasError()
T39BC 000:837.383 JLINK_WriteReg(R0, 0x18006000)
T39BC 000:837.389 - 0.008ms returns 0
T39BC 000:837.396 JLINK_WriteReg(R1, 0x00001000)
T39BC 000:837.402 - 0.008ms returns 0
T39BC 000:837.408 JLINK_WriteReg(R2, 0x000000FF)
T39BC 000:837.414 - 0.008ms returns 0
T39BC 000:837.420 JLINK_WriteReg(R3, 0x00000000)
T39BC 000:837.425 - 0.008ms returns 0
T39BC 000:837.432 JLINK_WriteReg(R4, 0x00000000)
T39BC 000:837.437 - 0.008ms returns 0
T39BC 000:837.444 JLINK_WriteReg(R5, 0x00000000)
T39BC 000:837.449 - 0.008ms returns 0
T39BC 000:837.456 JLINK_WriteReg(R6, 0x00000000)
T39BC 000:837.461 - 0.008ms returns 0
T39BC 000:837.468 JLINK_WriteReg(R7, 0x00000000)
T39BC 000:837.473 - 0.008ms returns 0
T39BC 000:837.480 JLINK_WriteReg(R8, 0x00000000)
T39BC 000:837.485 - 0.008ms returns 0
T39BC 000:837.491 JLINK_WriteReg(R9, 0x2000077E)
T39BC 000:837.499 - 0.011ms returns 0
T39BC 000:837.507 JLINK_WriteReg(R10, 0x00000000)
T39BC 000:837.513 - 0.008ms returns 0
T39BC 000:837.519 JLINK_WriteReg(R11, 0x00000000)
T39BC 000:837.525 - 0.008ms returns 0
T39BC 000:837.531 JLINK_WriteReg(R12, 0x00000000)
T39BC 000:837.537 - 0.008ms returns 0
T39BC 000:837.543 JLINK_WriteReg(R13 (SP), 0x20001000)
T39BC 000:837.549 - 0.008ms returns 0
T39BC 000:837.555 JLINK_WriteReg(R14, 0x20000001)
T39BC 000:837.561 - 0.008ms returns 0
T39BC 000:837.567 JLINK_WriteReg(R15 (PC), 0x20000092)
T39BC 000:837.573 - 0.008ms returns 0
T39BC 000:837.579 JLINK_WriteReg(XPSR, 0x01000000)
T39BC 000:837.585 - 0.008ms returns 0
T39BC 000:837.591 JLINK_WriteReg(MSP, 0x20001000)
T39BC 000:837.597 - 0.008ms returns 0
T39BC 000:837.603 JLINK_WriteReg(PSP, 0x20001000)
T39BC 000:837.609 - 0.008ms returns 0
T39BC 000:837.615 JLINK_WriteReg(CFBP, 0x00000000)
T39BC 000:837.621 - 0.008ms returns 0
T39BC 000:837.627 JLINK_SetBPEx(Addr = 0x20000000, Type = 0xFFFFFFF2)
T39BC 000:837.633 - 0.008ms returns 0x00000005
T39BC 000:837.640 JLINK_Go()
T39BC 000:837.649   CPU_ReadMem(4 bytes @ 0xE0001000)
T39BC 000:841.747 - 4.113ms
T39BC 000:841.760 JLINK_IsHalted()
T39BC 000:842.328 - 0.571ms returns FALSE
T39BC 000:842.337 JLINK_HasError()
T39BC 000:847.012 JLINK_IsHalted()
T39BC 000:847.354 - 0.348ms returns FALSE
T39BC 000:847.367 JLINK_HasError()
T39BC 000:849.016 JLINK_IsHalted()
T39BC 000:849.330 - 0.320ms returns FALSE
T39BC 000:849.342 JLINK_HasError()
T39BC 000:851.015 JLINK_IsHalted()
T39BC 000:853.763   CPU_ReadMem(2 bytes @ 0x20000000)
T39BC 000:854.215 - 3.203ms returns TRUE
T39BC 000:854.223 JLINK_ReadReg(R15 (PC))
T39BC 000:854.230 - 0.009ms returns 0x20000000
T39BC 000:854.237 JLINK_ClrBPEx(BPHandle = 0x00000005)
T39BC 000:854.243 - 0.008ms returns 0x00
T39BC 000:854.249 JLINK_ReadReg(R0)
T39BC 000:854.255 - 0.008ms returns 0x00000000
T39BC 000:854.700 JLINK_HasError()
T39BC 000:854.711 JLINK_WriteReg(R0, 0x18007000)
T39BC 000:854.718 - 0.009ms returns 0
T39BC 000:854.725 JLINK_WriteReg(R1, 0x00001000)
T39BC 000:854.731 - 0.008ms returns 0
T39BC 000:854.737 JLINK_WriteReg(R2, 0x000000FF)
T39BC 000:854.743 - 0.008ms returns 0
T39BC 000:854.749 JLINK_WriteReg(R3, 0x00000000)
T39BC 000:854.755 - 0.008ms returns 0
T39BC 000:854.761 JLINK_WriteReg(R4, 0x00000000)
T39BC 000:854.767 - 0.008ms returns 0
T39BC 000:854.773 JLINK_WriteReg(R5, 0x00000000)
T39BC 000:854.779 - 0.008ms returns 0
T39BC 000:854.785 JLINK_WriteReg(R6, 0x00000000)
T39BC 000:854.791 - 0.008ms returns 0
T39BC 000:854.797 JLINK_WriteReg(R7, 0x00000000)
T39BC 000:854.802 - 0.008ms returns 0
T39BC 000:854.809 JLINK_WriteReg(R8, 0x00000000)
T39BC 000:854.814 - 0.008ms returns 0
T39BC 000:854.821 JLINK_WriteReg(R9, 0x2000077E)
T39BC 000:854.826 - 0.008ms returns 0
T39BC 000:854.833 JLINK_WriteReg(R10, 0x00000000)
T39BC 000:854.838 - 0.008ms returns 0
T39BC 000:854.845 JLINK_WriteReg(R11, 0x00000000)
T39BC 000:854.850 - 0.008ms returns 0
T39BC 000:854.857 JLINK_WriteReg(R12, 0x00000000)
T39BC 000:854.862 - 0.008ms returns 0
T39BC 000:854.868 JLINK_WriteReg(R13 (SP), 0x20001000)
T39BC 000:854.874 - 0.008ms returns 0
T39BC 000:854.881 JLINK_WriteReg(R14, 0x20000001)
T39BC 000:854.886 - 0.008ms returns 0
T39BC 000:854.893 JLINK_WriteReg(R15 (PC), 0x20000020)
T39BC 000:854.898 - 0.008ms returns 0
T39BC 000:854.905 JLINK_WriteReg(XPSR, 0x01000000)
T39BC 000:854.910 - 0.008ms returns 0
T39BC 000:854.917 JLINK_WriteReg(MSP, 0x20001000)
T39BC 000:854.923 - 0.008ms returns 0
T39BC 000:854.929 JLINK_WriteReg(PSP, 0x20001000)
T39BC 000:854.935 - 0.008ms returns 0
T39BC 000:854.941 JLINK_WriteReg(CFBP, 0x00000000)
T39BC 000:854.947 - 0.008ms returns 0
T39BC 000:854.953 JLINK_SetBPEx(Addr = 0x20000000, Type = 0xFFFFFFF2)
T39BC 000:854.959 - 0.008ms returns 0x00000006
T39BC 000:854.966 JLINK_Go()
T39BC 000:854.976   CPU_ReadMem(4 bytes @ 0xE0001000)
T39BC 000:858.327 - 3.365ms
T39BC 000:858.336 JLINK_IsHalted()
T39BC 000:861.765   CPU_ReadMem(2 bytes @ 0x20000000)
T39BC 000:862.214 - 3.881ms returns TRUE
T39BC 000:862.223 JLINK_ReadReg(R15 (PC))
T39BC 000:862.230 - 0.009ms returns 0x20000000
T39BC 000:862.237 JLINK_ClrBPEx(BPHandle = 0x00000006)
T39BC 000:862.242 - 0.008ms returns 0x00
T39BC 000:862.249 JLINK_ReadReg(R0)
T39BC 000:862.255 - 0.008ms returns 0x00000001
T39BC 000:862.262 JLINK_HasError()
T39BC 000:862.268 JLINK_WriteReg(R0, 0x18007000)
T39BC 000:862.274 - 0.008ms returns 0
T39BC 000:862.281 JLINK_WriteReg(R1, 0x00001000)
T39BC 000:862.286 - 0.008ms returns 0
T39BC 000:862.293 JLINK_WriteReg(R2, 0x000000FF)
T39BC 000:862.298 - 0.008ms returns 0
T39BC 000:862.305 JLINK_WriteReg(R3, 0x00000000)
T39BC 000:862.310 - 0.008ms returns 0
T39BC 000:862.317 JLINK_WriteReg(R4, 0x00000000)
T39BC 000:862.322 - 0.008ms returns 0
T39BC 000:862.329 JLINK_WriteReg(R5, 0x00000000)
T39BC 000:862.335 - 0.008ms returns 0
T39BC 000:862.341 JLINK_WriteReg(R6, 0x00000000)
T39BC 000:862.347 - 0.008ms returns 0
T39BC 000:862.353 JLINK_WriteReg(R7, 0x00000000)
T39BC 000:862.359 - 0.008ms returns 0
T39BC 000:862.365 JLINK_WriteReg(R8, 0x00000000)
T39BC 000:862.371 - 0.008ms returns 0
T39BC 000:862.377 JLINK_WriteReg(R9, 0x2000077E)
T39BC 000:862.382 - 0.008ms returns 0
T39BC 000:862.389 JLINK_WriteReg(R10, 0x00000000)
T39BC 000:862.394 - 0.008ms returns 0
T39BC 000:862.401 JLINK_WriteReg(R11, 0x00000000)
T39BC 000:862.406 - 0.008ms returns 0
T39BC 000:862.413 JLINK_WriteReg(R12, 0x00000000)
T39BC 000:862.418 - 0.008ms returns 0
T39BC 000:862.425 JLINK_WriteReg(R13 (SP), 0x20001000)
T39BC 000:862.430 - 0.008ms returns 0
T39BC 000:862.437 JLINK_WriteReg(R14, 0x20000001)
T39BC 000:862.442 - 0.008ms returns 0
T39BC 000:862.449 JLINK_WriteReg(R15 (PC), 0x20000092)
T39BC 000:862.454 - 0.008ms returns 0
T39BC 000:862.461 JLINK_WriteReg(XPSR, 0x01000000)
T39BC 000:862.466 - 0.008ms returns 0
T39BC 000:862.473 JLINK_WriteReg(MSP, 0x20001000)
T39BC 000:862.478 - 0.008ms returns 0
T39BC 000:862.485 JLINK_WriteReg(PSP, 0x20001000)
T39BC 000:862.490 - 0.008ms returns 0
T39BC 000:862.497 JLINK_WriteReg(CFBP, 0x00000000)
T39BC 000:862.502 - 0.008ms returns 0
T39BC 000:862.509 JLINK_SetBPEx(Addr = 0x20000000, Type = 0xFFFFFFF2)
T39BC 000:862.515 - 0.008ms returns 0x00000007
T39BC 000:862.521 JLINK_Go()
T39BC 000:862.530   CPU_ReadMem(4 bytes @ 0xE0001000)
T39BC 000:866.328 - 3.813ms
T39BC 000:866.340 JLINK_IsHalted()
T39BC 000:866.748 - 0.412ms returns FALSE
T39BC 000:866.757 JLINK_HasError()
T39BC 000:868.030 JLINK_IsHalted()
T39BC 000:868.326 - 0.299ms returns FALSE
T39BC 000:868.335 JLINK_HasError()
T39BC 000:870.032 JLINK_IsHalted()
T39BC 000:870.327 - 0.298ms returns FALSE
T39BC 000:870.335 JLINK_HasError()
T39BC 000:872.034 JLINK_IsHalted()
T39BC 000:872.326 - 0.295ms returns FALSE
T39BC 000:872.334 JLINK_HasError()
T39BC 000:874.036 JLINK_IsHalted()
T39BC 000:874.328 - 0.297ms returns FALSE
T39BC 000:874.339 JLINK_HasError()
T39BC 000:876.054 JLINK_IsHalted()
T39BC 000:879.344   CPU_ReadMem(2 bytes @ 0x20000000)
T39BC 000:879.751 - 3.699ms returns TRUE
T39BC 000:879.759 JLINK_ReadReg(R15 (PC))
T39BC 000:879.766 - 0.009ms returns 0x20000000
T39BC 000:879.772 JLINK_ClrBPEx(BPHandle = 0x00000007)
T39BC 000:879.778 - 0.008ms returns 0x00
T39BC 000:879.785 JLINK_ReadReg(R0)
T39BC 000:879.791 - 0.008ms returns 0x00000000
T39BC 000:880.266 JLINK_HasError()
T39BC 000:880.278 JLINK_WriteReg(R0, 0x18008000)
T39BC 000:880.285 - 0.009ms returns 0
T39BC 000:880.292 JLINK_WriteReg(R1, 0x00001000)
T39BC 000:880.298 - 0.008ms returns 0
T39BC 000:880.304 JLINK_WriteReg(R2, 0x000000FF)
T39BC 000:880.310 - 0.008ms returns 0
T39BC 000:880.316 JLINK_WriteReg(R3, 0x00000000)
T39BC 000:880.322 - 0.008ms returns 0
T39BC 000:880.328 JLINK_WriteReg(R4, 0x00000000)
T39BC 000:880.334 - 0.008ms returns 0
T39BC 000:880.340 JLINK_WriteReg(R5, 0x00000000)
T39BC 000:880.346 - 0.008ms returns 0
T39BC 000:880.352 JLINK_WriteReg(R6, 0x00000000)
T39BC 000:880.357 - 0.008ms returns 0
T39BC 000:880.364 JLINK_WriteReg(R7, 0x00000000)
T39BC 000:880.369 - 0.047ms returns 0
T39BC 000:880.418 JLINK_WriteReg(R8, 0x00000000)
T39BC 000:880.424 - 0.008ms returns 0
T39BC 000:880.430 JLINK_WriteReg(R9, 0x2000077E)
T39BC 000:880.436 - 0.008ms returns 0
T39BC 000:880.442 JLINK_WriteReg(R10, 0x00000000)
T39BC 000:880.448 - 0.008ms returns 0
T39BC 000:880.454 JLINK_WriteReg(R11, 0x00000000)
T39BC 000:880.460 - 0.008ms returns 0
T39BC 000:880.466 JLINK_WriteReg(R12, 0x00000000)
T39BC 000:880.472 - 0.008ms returns 0
T39BC 000:880.478 JLINK_WriteReg(R13 (SP), 0x20001000)
T39BC 000:880.484 - 0.008ms returns 0
T39BC 000:880.491 JLINK_WriteReg(R14, 0x20000001)
T39BC 000:880.496 - 0.008ms returns 0
T39BC 000:880.503 JLINK_WriteReg(R15 (PC), 0x20000020)
T39BC 000:880.508 - 0.008ms returns 0
T39BC 000:880.515 JLINK_WriteReg(XPSR, 0x01000000)
T39BC 000:880.520 - 0.008ms returns 0
T39BC 000:880.527 JLINK_WriteReg(MSP, 0x20001000)
T39BC 000:880.532 - 0.008ms returns 0
T39BC 000:880.539 JLINK_WriteReg(PSP, 0x20001000)
T39BC 000:880.544 - 0.008ms returns 0
T39BC 000:880.551 JLINK_WriteReg(CFBP, 0x00000000)
T39BC 000:880.556 - 0.008ms returns 0
T39BC 000:880.563 JLINK_SetBPEx(Addr = 0x20000000, Type = 0xFFFFFFF2)
T39BC 000:880.569 - 0.008ms returns 0x00000008
T39BC 000:880.576 JLINK_Go()
T39BC 000:880.586   CPU_ReadMem(4 bytes @ 0xE0001000)
T39BC 000:884.327 - 3.758ms
T39BC 000:884.339 JLINK_IsHalted()
T39BC 000:889.768   CPU_ReadMem(2 bytes @ 0x20000000)
T39BC 000:890.327 - 5.991ms returns TRUE
T39BC 000:890.335 JLINK_ReadReg(R15 (PC))
T39BC 000:890.342 - 0.009ms returns 0x20000000
T39BC 000:890.348 JLINK_ClrBPEx(BPHandle = 0x00000008)
T39BC 000:890.354 - 0.008ms returns 0x00
T39BC 000:890.360 JLINK_ReadReg(R0)
T39BC 000:890.365 - 0.008ms returns 0x00000001
T39BC 000:890.372 JLINK_HasError()
T39BC 000:890.378 JLINK_WriteReg(R0, 0x18008000)
T39BC 000:890.384 - 0.008ms returns 0
T39BC 000:890.390 JLINK_WriteReg(R1, 0x00001000)
T39BC 000:890.396 - 0.008ms returns 0
T39BC 000:890.402 JLINK_WriteReg(R2, 0x000000FF)
T39BC 000:890.407 - 0.008ms returns 0
T39BC 000:890.413 JLINK_WriteReg(R3, 0x00000000)
T39BC 000:890.419 - 0.008ms returns 0
T39BC 000:890.425 JLINK_WriteReg(R4, 0x00000000)
T39BC 000:890.430 - 0.007ms returns 0
T39BC 000:890.437 JLINK_WriteReg(R5, 0x00000000)
T39BC 000:890.442 - 0.008ms returns 0
T39BC 000:890.448 JLINK_WriteReg(R6, 0x00000000)
T39BC 000:890.453 - 0.007ms returns 0
T39BC 000:890.460 JLINK_WriteReg(R7, 0x00000000)
T39BC 000:890.465 - 0.007ms returns 0
T39BC 000:890.471 JLINK_WriteReg(R8, 0x00000000)
T39BC 000:890.476 - 0.007ms returns 0
T39BC 000:890.483 JLINK_WriteReg(R9, 0x2000077E)
T39BC 000:890.488 - 0.008ms returns 0
T39BC 000:890.494 JLINK_WriteReg(R10, 0x00000000)
T39BC 000:890.500 - 0.008ms returns 0
T39BC 000:890.506 JLINK_WriteReg(R11, 0x00000000)
T39BC 000:890.511 - 0.008ms returns 0
T39BC 000:890.517 JLINK_WriteReg(R12, 0x00000000)
T39BC 000:890.523 - 0.007ms returns 0
T39BC 000:890.529 JLINK_WriteReg(R13 (SP), 0x20001000)
T39BC 000:890.535 - 0.008ms returns 0
T39BC 000:890.541 JLINK_WriteReg(R14, 0x20000001)
T39BC 000:890.546 - 0.008ms returns 0
T39BC 000:890.552 JLINK_WriteReg(R15 (PC), 0x20000092)
T39BC 000:890.558 - 0.008ms returns 0
T39BC 000:890.564 JLINK_WriteReg(XPSR, 0x01000000)
T39BC 000:890.569 - 0.008ms returns 0
T39BC 000:890.576 JLINK_WriteReg(MSP, 0x20001000)
T39BC 000:890.581 - 0.008ms returns 0
T39BC 000:890.587 JLINK_WriteReg(PSP, 0x20001000)
T39BC 000:890.593 - 0.008ms returns 0
T39BC 000:890.599 JLINK_WriteReg(CFBP, 0x00000000)
T39BC 000:890.604 - 0.008ms returns 0
T39BC 000:890.610 JLINK_SetBPEx(Addr = 0x20000000, Type = 0xFFFFFFF2)
T39BC 000:890.616 - 0.008ms returns 0x00000009
T39BC 000:890.622 JLINK_Go()
T39BC 000:890.631   CPU_ReadMem(4 bytes @ 0xE0001000)
T39BC 000:894.746 - 4.128ms
T39BC 000:894.757 JLINK_IsHalted()
T39BC 000:895.747 - 0.993ms returns FALSE
T39BC 000:895.756 JLINK_HasError()
T39BC 000:897.057 JLINK_IsHalted()
T39BC 000:897.750 - 0.700ms returns FALSE
T39BC 000:897.764 JLINK_HasError()
T39BC 000:899.060 JLINK_IsHalted()
T39BC 000:899.744 - 0.689ms returns FALSE
T39BC 000:899.753 JLINK_HasError()
T39BC 000:901.062 JLINK_IsHalted()
T39BC 000:901.747 - 0.690ms returns FALSE
T39BC 000:901.756 JLINK_HasError()
T39BC 000:903.062 JLINK_IsHalted()
T39BC 000:903.747 - 0.688ms returns FALSE
T39BC 000:903.755 JLINK_HasError()
T39BC 000:905.064 JLINK_IsHalted()
T39BC 000:908.343   CPU_ReadMem(2 bytes @ 0x20000000)
T39BC 000:908.748 - 3.688ms returns TRUE
T39BC 000:908.757 JLINK_ReadReg(R15 (PC))
T39BC 000:908.764 - 0.009ms returns 0x20000000
T39BC 000:908.770 JLINK_ClrBPEx(BPHandle = 0x00000009)
T39BC 000:908.776 - 0.008ms returns 0x00
T39BC 000:908.783 JLINK_ReadReg(R0)
T39BC 000:908.788 - 0.008ms returns 0x00000000
T39BC 000:909.231 JLINK_HasError()
T39BC 000:909.242 JLINK_WriteReg(R0, 0x18009000)
T39BC 000:909.249 - 0.009ms returns 0
T39BC 000:909.256 JLINK_WriteReg(R1, 0x00001000)
T39BC 000:909.262 - 0.008ms returns 0
T39BC 000:909.268 JLINK_WriteReg(R2, 0x000000FF)
T39BC 000:909.274 - 0.008ms returns 0
T39BC 000:909.280 JLINK_WriteReg(R3, 0x00000000)
T39BC 000:909.286 - 0.008ms returns 0
T39BC 000:909.292 JLINK_WriteReg(R4, 0x00000000)
T39BC 000:909.298 - 0.008ms returns 0
T39BC 000:909.304 JLINK_WriteReg(R5, 0x00000000)
T39BC 000:909.310 - 0.008ms returns 0
T39BC 000:909.316 JLINK_WriteReg(R6, 0x00000000)
T39BC 000:909.321 - 0.008ms returns 0
T39BC 000:909.328 JLINK_WriteReg(R7, 0x00000000)
T39BC 000:909.333 - 0.008ms returns 0
T39BC 000:909.340 JLINK_WriteReg(R8, 0x00000000)
T39BC 000:909.345 - 0.008ms returns 0
T39BC 000:909.352 JLINK_WriteReg(R9, 0x2000077E)
T39BC 000:909.357 - 0.008ms returns 0
T39BC 000:909.364 JLINK_WriteReg(R10, 0x00000000)
T39BC 000:909.369 - 0.008ms returns 0
T39BC 000:909.376 JLINK_WriteReg(R11, 0x00000000)
T39BC 000:909.381 - 0.008ms returns 0
T39BC 000:909.388 JLINK_WriteReg(R12, 0x00000000)
T39BC 000:909.393 - 0.008ms returns 0
T39BC 000:909.400 JLINK_WriteReg(R13 (SP), 0x20001000)
T39BC 000:909.405 - 0.008ms returns 0
T39BC 000:909.412 JLINK_WriteReg(R14, 0x20000001)
T39BC 000:909.417 - 0.008ms returns 0
T39BC 000:909.424 JLINK_WriteReg(R15 (PC), 0x20000020)
T39BC 000:909.429 - 0.008ms returns 0
T39BC 000:909.436 JLINK_WriteReg(XPSR, 0x01000000)
T39BC 000:909.441 - 0.008ms returns 0
T39BC 000:909.448 JLINK_WriteReg(MSP, 0x20001000)
T39BC 000:909.453 - 0.008ms returns 0
T39BC 000:909.459 JLINK_WriteReg(PSP, 0x20001000)
T39BC 000:909.465 - 0.008ms returns 0
T39BC 000:909.471 JLINK_WriteReg(CFBP, 0x00000000)
T39BC 000:909.477 - 0.008ms returns 0
T39BC 000:909.483 JLINK_SetBPEx(Addr = 0x20000000, Type = 0xFFFFFFF2)
T39BC 000:909.490 - 0.009ms returns 0x0000000A
T39BC 000:909.496 JLINK_Go()
T39BC 000:909.506   CPU_ReadMem(4 bytes @ 0xE0001000)
T39BC 000:913.328 - 3.837ms
T39BC 000:913.339 JLINK_IsHalted()
T39BC 000:916.350   CPU_ReadMem(2 bytes @ 0x20000000)
T39BC 000:916.750 - 3.415ms returns TRUE
T39BC 000:916.759 JLINK_ReadReg(R15 (PC))
T39BC 000:916.766 - 0.009ms returns 0x20000000
T39BC 000:916.773 JLINK_ClrBPEx(BPHandle = 0x0000000A)
T39BC 000:916.779 - 0.008ms returns 0x00
T39BC 000:916.785 JLINK_ReadReg(R0)
T39BC 000:916.791 - 0.008ms returns 0x00000001
T39BC 000:916.798 JLINK_HasError()
T39BC 000:916.804 JLINK_WriteReg(R0, 0x18009000)
T39BC 000:916.810 - 0.008ms returns 0
T39BC 000:916.817 JLINK_WriteReg(R1, 0x00001000)
T39BC 000:916.822 - 0.008ms returns 0
T39BC 000:916.829 JLINK_WriteReg(R2, 0x000000FF)
T39BC 000:916.834 - 0.008ms returns 0
T39BC 000:916.841 JLINK_WriteReg(R3, 0x00000000)
T39BC 000:916.846 - 0.008ms returns 0
T39BC 000:916.853 JLINK_WriteReg(R4, 0x00000000)
T39BC 000:916.858 - 0.008ms returns 0
T39BC 000:916.865 JLINK_WriteReg(R5, 0x00000000)
T39BC 000:916.870 - 0.008ms returns 0
T39BC 000:916.877 JLINK_WriteReg(R6, 0x00000000)
T39BC 000:916.882 - 0.008ms returns 0
T39BC 000:916.888 JLINK_WriteReg(R7, 0x00000000)
T39BC 000:916.894 - 0.008ms returns 0
T39BC 000:916.900 JLINK_WriteReg(R8, 0x00000000)
T39BC 000:916.906 - 0.008ms returns 0
T39BC 000:916.912 JLINK_WriteReg(R9, 0x2000077E)
T39BC 000:916.918 - 0.010ms returns 0
T39BC 000:916.928 JLINK_WriteReg(R10, 0x00000000)
T39BC 000:916.934 - 0.008ms returns 0
T39BC 000:916.940 JLINK_WriteReg(R11, 0x00000000)
T39BC 000:916.946 - 0.008ms returns 0
T39BC 000:916.952 JLINK_WriteReg(R12, 0x00000000)
T39BC 000:916.958 - 0.008ms returns 0
T39BC 000:916.964 JLINK_WriteReg(R13 (SP), 0x20001000)
T39BC 000:916.970 - 0.008ms returns 0
T39BC 000:916.976 JLINK_WriteReg(R14, 0x20000001)
T39BC 000:916.982 - 0.008ms returns 0
T39BC 000:916.988 JLINK_WriteReg(R15 (PC), 0x20000092)
T39BC 000:916.994 - 0.008ms returns 0
T39BC 000:917.000 JLINK_WriteReg(XPSR, 0x01000000)
T39BC 000:917.006 - 0.008ms returns 0
T39BC 000:917.012 JLINK_WriteReg(MSP, 0x20001000)
T39BC 000:917.018 - 0.008ms returns 0
T39BC 000:917.024 JLINK_WriteReg(PSP, 0x20001000)
T39BC 000:917.030 - 0.008ms returns 0
T39BC 000:917.036 JLINK_WriteReg(CFBP, 0x00000000)
T39BC 000:917.042 - 0.008ms returns 0
T39BC 000:917.048 JLINK_SetBPEx(Addr = 0x20000000, Type = 0xFFFFFFF2)
T39BC 000:917.054 - 0.008ms returns 0x0000000B
T39BC 000:917.061 JLINK_Go()
T39BC 000:917.070   CPU_ReadMem(4 bytes @ 0xE0001000)
T39BC 000:920.744 - 3.690ms
T39BC 000:920.757 JLINK_IsHalted()
T39BC 000:922.745 - 1.994ms returns FALSE
T39BC 000:922.757 JLINK_HasError()
T39BC 000:928.086 JLINK_IsHalted()
T39BC 000:928.748 - 0.665ms returns FALSE
T39BC 000:928.757 JLINK_HasError()
T39BC 000:930.086 JLINK_IsHalted()
T39BC 000:933.769   CPU_ReadMem(2 bytes @ 0x20000000)
T39BC 000:934.256 - 4.174ms returns TRUE
T39BC 000:934.266 JLINK_ReadReg(R15 (PC))
T39BC 000:934.273 - 0.010ms returns 0x20000000
T39BC 000:934.280 JLINK_ClrBPEx(BPHandle = 0x0000000B)
T39BC 000:934.286 - 0.008ms returns 0x00
T39BC 000:934.293 JLINK_ReadReg(R0)
T39BC 000:934.298 - 0.008ms returns 0x00000000
T39BC 000:934.745 JLINK_HasError()
T39BC 000:934.757 JLINK_WriteReg(R0, 0x1800A000)
T39BC 000:934.764 - 0.009ms returns 0
T39BC 000:934.770 JLINK_WriteReg(R1, 0x00001000)
T39BC 000:934.776 - 0.008ms returns 0
T39BC 000:934.783 JLINK_WriteReg(R2, 0x000000FF)
T39BC 000:934.788 - 0.008ms returns 0
T39BC 000:934.795 JLINK_WriteReg(R3, 0x00000000)
T39BC 000:934.800 - 0.008ms returns 0
T39BC 000:934.807 JLINK_WriteReg(R4, 0x00000000)
T39BC 000:934.812 - 0.008ms returns 0
T39BC 000:934.819 JLINK_WriteReg(R5, 0x00000000)
T39BC 000:934.824 - 0.008ms returns 0
T39BC 000:934.831 JLINK_WriteReg(R6, 0x00000000)
T39BC 000:934.836 - 0.008ms returns 0
T39BC 000:934.843 JLINK_WriteReg(R7, 0x00000000)
T39BC 000:934.848 - 0.008ms returns 0
T39BC 000:934.854 JLINK_WriteReg(R8, 0x00000000)
T39BC 000:934.860 - 0.008ms returns 0
T39BC 000:934.866 JLINK_WriteReg(R9, 0x2000077E)
T39BC 000:934.872 - 0.008ms returns 0
T39BC 000:934.878 JLINK_WriteReg(R10, 0x00000000)
T39BC 000:934.884 - 0.008ms returns 0
T39BC 000:934.890 JLINK_WriteReg(R11, 0x00000000)
T39BC 000:934.896 - 0.008ms returns 0
T39BC 000:934.902 JLINK_WriteReg(R12, 0x00000000)
T39BC 000:934.908 - 0.008ms returns 0
T39BC 000:934.914 JLINK_WriteReg(R13 (SP), 0x20001000)
T39BC 000:934.920 - 0.009ms returns 0
T39BC 000:934.927 JLINK_WriteReg(R14, 0x20000001)
T39BC 000:934.932 - 0.008ms returns 0
T39BC 000:934.939 JLINK_WriteReg(R15 (PC), 0x20000020)
T39BC 000:934.944 - 0.008ms returns 0
T39BC 000:934.951 JLINK_WriteReg(XPSR, 0x01000000)
T39BC 000:934.956 - 0.008ms returns 0
T39BC 000:934.963 JLINK_WriteReg(MSP, 0x20001000)
T39BC 000:934.968 - 0.008ms returns 0
T39BC 000:934.975 JLINK_WriteReg(PSP, 0x20001000)
T39BC 000:934.981 - 0.008ms returns 0
T39BC 000:934.987 JLINK_WriteReg(CFBP, 0x00000000)
T39BC 000:934.992 - 0.008ms returns 0
T39BC 000:934.999 JLINK_SetBPEx(Addr = 0x20000000, Type = 0xFFFFFFF2)
T39BC 000:935.005 - 0.008ms returns 0x0000000C
T39BC 000:935.012 JLINK_Go()
T39BC 000:935.022   CPU_ReadMem(4 bytes @ 0xE0001000)
T39BC 000:938.746 - 3.738ms
T39BC 000:938.755 JLINK_IsHalted()
T39BC 000:943.342   CPU_ReadMem(2 bytes @ 0x20000000)
T39BC 000:943.748 - 4.996ms returns TRUE
T39BC 000:943.756 JLINK_ReadReg(R15 (PC))
T39BC 000:943.763 - 0.009ms returns 0x20000000
T39BC 000:943.771 JLINK_ClrBPEx(BPHandle = 0x0000000C)
T39BC 000:943.779 - 0.010ms returns 0x00
T39BC 000:943.785 JLINK_ReadReg(R0)
T39BC 000:943.791 - 0.008ms returns 0x00000001
T39BC 000:943.798 JLINK_HasError()
T39BC 000:943.804 JLINK_WriteReg(R0, 0x1800A000)
T39BC 000:943.810 - 0.008ms returns 0
T39BC 000:943.817 JLINK_WriteReg(R1, 0x00001000)
T39BC 000:943.822 - 0.008ms returns 0
T39BC 000:943.829 JLINK_WriteReg(R2, 0x000000FF)
T39BC 000:943.834 - 0.008ms returns 0
T39BC 000:943.841 JLINK_WriteReg(R3, 0x00000000)
T39BC 000:943.846 - 0.008ms returns 0
T39BC 000:943.853 JLINK_WriteReg(R4, 0x00000000)
T39BC 000:943.858 - 0.008ms returns 0
T39BC 000:943.864 JLINK_WriteReg(R5, 0x00000000)
T39BC 000:943.870 - 0.008ms returns 0
T39BC 000:943.876 JLINK_WriteReg(R6, 0x00000000)
T39BC 000:943.882 - 0.008ms returns 0
T39BC 000:943.888 JLINK_WriteReg(R7, 0x00000000)
T39BC 000:943.894 - 0.008ms returns 0
T39BC 000:943.900 JLINK_WriteReg(R8, 0x00000000)
T39BC 000:943.906 - 0.008ms returns 0
T39BC 000:943.912 JLINK_WriteReg(R9, 0x2000077E)
T39BC 000:943.918 - 0.008ms returns 0
T39BC 000:943.924 JLINK_WriteReg(R10, 0x00000000)
T39BC 000:943.930 - 0.008ms returns 0
T39BC 000:943.936 JLINK_WriteReg(R11, 0x00000000)
T39BC 000:943.942 - 0.008ms returns 0
T39BC 000:943.948 JLINK_WriteReg(R12, 0x00000000)
T39BC 000:943.954 - 0.008ms returns 0
T39BC 000:943.960 JLINK_WriteReg(R13 (SP), 0x20001000)
T39BC 000:943.966 - 0.008ms returns 0
T39BC 000:943.972 JLINK_WriteReg(R14, 0x20000001)
T39BC 000:943.978 - 0.008ms returns 0
T39BC 000:943.984 JLINK_WriteReg(R15 (PC), 0x20000092)
T39BC 000:943.990 - 0.008ms returns 0
T39BC 000:943.996 JLINK_WriteReg(XPSR, 0x01000000)
T39BC 000:944.002 - 0.008ms returns 0
T39BC 000:944.008 JLINK_WriteReg(MSP, 0x20001000)
T39BC 000:944.014 - 0.008ms returns 0
T39BC 000:944.020 JLINK_WriteReg(PSP, 0x20001000)
T39BC 000:944.026 - 0.008ms returns 0
T39BC 000:944.032 JLINK_WriteReg(CFBP, 0x00000000)
T39BC 000:944.037 - 0.008ms returns 0
T39BC 000:944.044 JLINK_SetBPEx(Addr = 0x20000000, Type = 0xFFFFFFF2)
T39BC 000:944.050 - 0.008ms returns 0x0000000D
T39BC 000:944.056 JLINK_Go()
T39BC 000:944.065   CPU_ReadMem(4 bytes @ 0xE0001000)
T39BC 000:947.755 - 3.706ms
T39BC 000:947.770 JLINK_IsHalted()
T39BC 000:948.325 - 0.561ms returns FALSE
T39BC 000:948.337 JLINK_HasError()
T39BC 000:950.105 JLINK_IsHalted()
T39BC 000:950.745 - 0.643ms returns FALSE
T39BC 000:950.753 JLINK_HasError()
T39BC 000:952.106 JLINK_IsHalted()
T39BC 000:952.746 - 0.643ms returns FALSE
T39BC 000:952.754 JLINK_HasError()
T39BC 000:954.108 JLINK_IsHalted()
T39BC 000:954.744 - 0.639ms returns FALSE
T39BC 000:954.752 JLINK_HasError()
T39BC 000:956.110 JLINK_IsHalted()
T39BC 000:956.746 - 0.639ms returns FALSE
T39BC 000:956.753 JLINK_HasError()
T39BC 000:958.112 JLINK_IsHalted()
T39BC 000:961.342   CPU_ReadMem(2 bytes @ 0x20000000)
T39BC 000:961.749 - 3.641ms returns TRUE
T39BC 000:961.757 JLINK_ReadReg(R15 (PC))
T39BC 000:961.764 - 0.009ms returns 0x20000000
T39BC 000:961.771 JLINK_ClrBPEx(BPHandle = 0x0000000D)
T39BC 000:961.776 - 0.008ms returns 0x00
T39BC 000:961.783 JLINK_ReadReg(R0)
T39BC 000:961.789 - 0.008ms returns 0x00000000
T39BC 000:962.230 JLINK_HasError()
T39BC 000:962.242 JLINK_WriteReg(R0, 0x1800B000)
T39BC 000:962.248 - 0.009ms returns 0
T39BC 000:962.255 JLINK_WriteReg(R1, 0x00001000)
T39BC 000:962.260 - 0.008ms returns 0
T39BC 000:962.267 JLINK_WriteReg(R2, 0x000000FF)
T39BC 000:962.273 - 0.008ms returns 0
T39BC 000:962.279 JLINK_WriteReg(R3, 0x00000000)
T39BC 000:962.284 - 0.008ms returns 0
T39BC 000:962.291 JLINK_WriteReg(R4, 0x00000000)
T39BC 000:962.296 - 0.008ms returns 0
T39BC 000:962.303 JLINK_WriteReg(R5, 0x00000000)
T39BC 000:962.308 - 0.008ms returns 0
T39BC 000:962.315 JLINK_WriteReg(R6, 0x00000000)
T39BC 000:962.320 - 0.008ms returns 0
T39BC 000:962.326 JLINK_WriteReg(R7, 0x00000000)
T39BC 000:962.332 - 0.008ms returns 0
T39BC 000:962.338 JLINK_WriteReg(R8, 0x00000000)
T39BC 000:962.344 - 0.008ms returns 0
T39BC 000:962.350 JLINK_WriteReg(R9, 0x2000077E)
T39BC 000:962.360 - 0.012ms returns 0
T39BC 000:962.366 JLINK_WriteReg(R10, 0x00000000)
T39BC 000:962.372 - 0.008ms returns 0
T39BC 000:962.379 JLINK_WriteReg(R11, 0x00000000)
T39BC 000:962.384 - 0.008ms returns 0
T39BC 000:962.391 JLINK_WriteReg(R12, 0x00000000)
T39BC 000:962.396 - 0.008ms returns 0
T39BC 000:962.403 JLINK_WriteReg(R13 (SP), 0x20001000)
T39BC 000:962.409 - 0.008ms returns 0
T39BC 000:962.415 JLINK_WriteReg(R14, 0x20000001)
T39BC 000:962.421 - 0.008ms returns 0
T39BC 000:962.427 JLINK_WriteReg(R15 (PC), 0x20000020)
T39BC 000:962.433 - 0.008ms returns 0
T39BC 000:962.439 JLINK_WriteReg(XPSR, 0x01000000)
T39BC 000:962.445 - 0.008ms returns 0
T39BC 000:962.451 JLINK_WriteReg(MSP, 0x20001000)
T39BC 000:962.457 - 0.008ms returns 0
T39BC 000:962.463 JLINK_WriteReg(PSP, 0x20001000)
T39BC 000:962.469 - 0.008ms returns 0
T39BC 000:962.475 JLINK_WriteReg(CFBP, 0x00000000)
T39BC 000:962.481 - 0.008ms returns 0
T39BC 000:962.487 JLINK_SetBPEx(Addr = 0x20000000, Type = 0xFFFFFFF2)
T39BC 000:962.493 - 0.008ms returns 0x0000000E
T39BC 000:962.500 JLINK_Go()
T39BC 000:962.510   CPU_ReadMem(4 bytes @ 0xE0001000)
T39BC 000:966.251 - 3.758ms
T39BC 000:966.264 JLINK_IsHalted()
T39BC 000:969.768   CPU_ReadMem(2 bytes @ 0x20000000)
T39BC 000:970.328 - 4.068ms returns TRUE
T39BC 000:970.337 JLINK_ReadReg(R15 (PC))
T39BC 000:970.344 - 0.009ms returns 0x20000000
T39BC 000:970.351 JLINK_ClrBPEx(BPHandle = 0x0000000E)
T39BC 000:970.357 - 0.008ms returns 0x00
T39BC 000:970.364 JLINK_ReadReg(R0)
T39BC 000:970.369 - 0.008ms returns 0x00000001
T39BC 000:970.376 JLINK_HasError()
T39BC 000:970.383 JLINK_WriteReg(R0, 0x1800B000)
T39BC 000:970.389 - 0.009ms returns 0
T39BC 000:970.395 JLINK_WriteReg(R1, 0x00001000)
T39BC 000:970.401 - 0.008ms returns 0
T39BC 000:970.408 JLINK_WriteReg(R2, 0x000000FF)
T39BC 000:970.413 - 0.008ms returns 0
